
TA900 000:281 SEGGER J-Link V5.12e Log File (0001ms, 0273ms total)
TA900 000:281 DLL Compiled: Apr 29 2016 15:03:58 (0001ms, 0273ms total)
TA900 000:281 Logging started @ 2016-06-24 14:32 (0001ms, 0273ms total)
TA900 000:282 JLINK_SetWarnOutHandler(...) (0000ms, 0273ms total)
TA900 000:282 JLINK_OpenEx(...)
Firmware: J-Link V9 compiled Mar 29 2016 18:46:37
Hardware: V9.30
S/N: 269307778
OEM: SEGGER-EDU
Feature(s): FlashBP, GDB  returns O.K. (0269ms, 0542ms total)
TA900 000:551 JLINK_SetErrorOutHandler(...) (0000ms, 0542ms total)
TA900 000:551 JLINK_ExecCommand("ProjectFile = "C:\Users\bhimebau\forge\trailmon\mdk_project\trailmon\MDK-ARM\JLinkSettings.ini"", ...)  returns 0x00 (0000ms, 0542ms total)
TA900 000:551 JLINK_ExecCommand("Device = STM32F303VE", ...)Device "STM32F303VE" selected.  returns 0x00 (0001ms, 0543ms total)
TA900 000:552 JLINK_ExecCommand("DisableConnectionTimeout", ...)  returns 0x01 (0000ms, 0543ms total)
TA900 000:552 JLINK_GetHardwareVersion()  returns 0x16B48 (0000ms, 0543ms total)
TA900 000:552 JLINK_GetDLLVersion()  returns 51205 (0000ms, 0543ms total)
TA900 000:552 JLINK_GetDLLVersion()  returns 51205 (0000ms, 0543ms total)
TA900 000:552 JLINK_GetCompileDateTime() (0000ms, 0543ms total)
TA900 000:552 JLINK_GetFirmwareString(...) (0000ms, 0543ms total)
TA900 000:552 JLINK_GetHardwareVersion()  returns 0x16B48 (0000ms, 0543ms total)
TA900 000:552 JLINK_TIF_Select(JLINKARM_TIF_JTAG)  returns 0x00 (0003ms, 0546ms total)
TA900 000:555 JLINK_SetSpeed(5000) (0001ms, 0547ms total)
TA900 000:556 JLINK_GetIdData(...) >0x2F8 JTAG>TotalIRLen = 9, IRPrint = 0x0011 >0x30 JTAG> >0x210 JTAG> >0x40 JTAG> >0x40 JTAG> >0x40 JTAG> >0x30 JTAG> >0x40 JTAG> >0x40 JTAG> >0x40 JTAG> >0x40 JTAG> >0x40 JTAG> >0x40 JTAG> >0x40 JTAG> >0x40 JTAG> >0x40 JTAG> >0x40 JTAG> >0x40 JTAG> >0x40 JTAG> >0x40 JTAG> >0x40 JTAG> >0x40 JTAG> >0x40 JTAG> >0x40 JTAG> >0x40 JTAG> >0x40 JTAG> >0x40 JTAG> >0x40 JTAG> >0x40 JTAG> >0x40 JTAG> >0x2F8 JTAG>TotalIRLen = 9, IRPrint = 0x0011 >0x30 JTAG> >0x210 JTAG>
 >0x70 JTAG> >0x50 JTAG> >0x40 JTAG> >0x50 JTAG> >0x80 JTAG> >0x40 JTAG> >0x30 JTAG> >0x40 JTAG> >0x40 JTAG> >0x30 JTAG> >0x40 JTAG> >0x50 JTAG>Found Cortex-M4 r0p1, Little endian. -- CPU_ReadMem(4 bytes @ 0xE000EDF0) -- CPU_ReadMem(4 bytes @ 0xE0002000)FPUnit: 6 code (BP) slots and 2 literal slots -- CPU_ReadMem(4 bytes @ 0xE000EDFC) -- CPU_ReadMem(4 bytes @ 0xE0001000) -- CPU_WriteMem(4 bytes @ 0xE0001000) -- CPU_ReadMem(4 bytes @ 0xE000ED88) -- CPU_WriteMem(4 bytes @ 0xE000ED88)
 -- CPU_ReadMem(4 bytes @ 0xE000ED88) -- CPU_WriteMem(4 bytes @ 0xE000ED88)CoreSight components:ROMTbl 0 @ E00FF000 -- CPU_ReadMem(16 bytes @ 0xE00FF000) -- CPU_ReadMem(16 bytes @ 0xE000EFF0) -- CPU_ReadMem(16 bytes @ 0xE000EFE0)ROMTbl 0 [0]: FFF0F000, CID: B105E00D, PID: 000BB00C SCS -- CPU_ReadMem(16 bytes @ 0xE0001FF0) -- CPU_ReadMem(16 bytes @ 0xE0001FE0)ROMTbl 0 [1]: FFF02000, CID: B105E00D, PID: 003BB002 DWT -- CPU_ReadMem(16 bytes @ 0xE0002FF0) -- CPU_ReadMem(16 bytes @ 0xE0002FE0)
ROMTbl 0 [2]: FFF03000, CID: B105E00D, PID: 002BB003 FPB -- CPU_ReadMem(16 bytes @ 0xE0000FF0) -- CPU_ReadMem(16 bytes @ 0xE0000FE0)ROMTbl 0 [3]: FFF01000, CID: B105E00D, PID: 003BB001 ITM -- CPU_ReadMem(16 bytes @ 0xE00FF010) -- CPU_ReadMem(16 bytes @ 0xE0040FF0) -- CPU_ReadMem(16 bytes @ 0xE0040FE0)ROMTbl 0 [4]: FFF41000, CID: B105900D, PID: 000BB9A1 TPIU -- CPU_ReadMem(16 bytes @ 0xE0041FF0) -- CPU_ReadMem(16 bytes @ 0xE0041FE0)ROMTbl 0 [5]: FFF42000, CID: B105900D, PID: 000BB925 ETM
 -- CPU_WriteMem(65536 bytes @ 0x20000000) -- CPU_ReadMem(4 bytes @ 0xE0001000) ScanLen=9 NumDevices=2 aId[0]=0x4BA00477 aIrRead[0]=0 aScanLen[0]=0 aScanRead[0]=0 (0275ms, 0822ms total)
TA900 000:831 JLINK_JTAG_GetDeviceID(DeviceIndex = 0)  returns 0x4BA00477 (0000ms, 0822ms total)
TA900 000:831 JLINK_JTAG_GetDeviceInfo(DeviceIndex = 0)  returns 0x00 (0000ms, 0822ms total)
TA900 000:831 JLINK_JTAG_GetDeviceID(DeviceIndex = 1)  returns 0x6446041 (0000ms, 0822ms total)
TA900 000:831 JLINK_JTAG_GetDeviceInfo(DeviceIndex = 1)  returns 0x01 (0000ms, 0822ms total)
TA900 000:831 JLINK_GetDLLVersion()  returns 51205 (0000ms, 0822ms total)
TA900 000:831 JLINK_CORE_GetFound()  returns 0xE0000FF (0001ms, 0823ms total)
TA900 000:832 JLINK_GetDebugInfo(0x100) -- Value=0xE00FF003  returns 0x00 (0000ms, 0823ms total)
TA900 000:832 JLINK_GetDebugInfo(0x100) -- Value=0xE00FF003  returns 0x00 (0000ms, 0823ms total)
TA900 000:832 JLINK_GetDebugInfo(0x101) -- Value=0xE0041000  returns 0x00 (0000ms, 0823ms total)
TA900 000:832 JLINK_GetDebugInfo(0x102) -- Value=0x00000000  returns 0x00 (0000ms, 0823ms total)
TA900 000:832 JLINK_GetDebugInfo(0x103) -- Value=0xE0040000  returns 0x00 (0000ms, 0823ms total)
TA900 000:832 JLINK_GetDebugInfo(0x104) -- Value=0xE0000000  returns 0x00 (0000ms, 0823ms total)
TA900 000:832 JLINK_GetDebugInfo(0x105) -- Value=0xE0001000  returns 0x00 (0000ms, 0823ms total)
TA900 000:832 JLINK_GetDebugInfo(0x106) -- Value=0xE0002000  returns 0x00 (0000ms, 0823ms total)
TA900 000:832 JLINK_GetDebugInfo(0x107) -- Value=0xE000E000  returns 0x00 (0000ms, 0823ms total)
TA900 000:832 JLINK_GetDebugInfo(0x10C) -- Value=0xE000EDF0  returns 0x00 (0000ms, 0823ms total)
TA900 000:832 JLINK_ReadMemU32(0xE000EF40, 0x0001 Items, ...) -- CPU is running -- CPU_ReadMem(4 bytes @ 0xE000EF40) - Data: 21 00 11 10  returns 0x01 (0001ms, 0824ms total)
TA900 000:833 JLINK_ReadMemU32(0xE000EF44, 0x0001 Items, ...) -- CPU is running -- CPU_ReadMem(4 bytes @ 0xE000EF44) - Data: 11 00 00 11  returns 0x01 (0001ms, 0825ms total)
TA900 000:834 JLINK_ReadMemU32(0xE000ED00, 0x0001 Items, ...) -- CPU is running -- CPU_ReadMem(4 bytes @ 0xE000ED00) - Data: 41 C2 0F 41  returns 0x01 (0001ms, 0826ms total)
TA900 000:835 JLINK_SetResetType(JLINKARM_RESET_TYPE_NORMAL)  returns JLINKARM_RESET_TYPE_NORMAL (0000ms, 0826ms total)
TA900 000:835 JLINK_Reset() -- CPU is running -- CPU_WriteMem(4 bytes @ 0xE000EDF0) -- CPU is running -- CPU_WriteMem(4 bytes @ 0xE000EDFC) -- CPU is running -- CPU_WriteMem(4 bytes @ 0xE000ED0C) -- CPU is running -- CPU_ReadMem(4 bytes @ 0xE000EDF0) -- CPU is running -- CPU_ReadMem(4 bytes @ 0xE000EDF0) -- CPU is running -- CPU_WriteMem(4 bytes @ 0xE000EDF0) -- CPU is running -- CPU_WriteMem(4 bytes @ 0xE000EDFC) -- CPU is running -- CPU_ReadMem(4 bytes @ 0xE000EDF0) >0x80 JTAG> >0x40 JTAG> >0x30 JTAG>
 >0x40 JTAG> >0x50 JTAG> >0x40 JTAG> -- CPU_WriteMem(4 bytes @ 0xE000EDFC) -- CPU_WriteMem(4 bytes @ 0xE0001028) -- CPU_WriteMem(4 bytes @ 0xE0001038) -- CPU_WriteMem(4 bytes @ 0xE0001048) -- CPU_WriteMem(4 bytes @ 0xE0001058) -- CPU_WriteMem(4 bytes @ 0xE0002000) -- CPU_ReadMem(4 bytes @ 0xE000EDFC) -- CPU_ReadMem(4 bytes @ 0xE0001000) (0030ms, 0856ms total)
TA900 000:865 JLINK_ReadReg(R15 (PC))  returns 0x080001A8 (0000ms, 0856ms total)
TA900 000:865 JLINK_ReadReg(XPSR)  returns 0x01000000 (0000ms, 0856ms total)
TA900 000:865 JLINK_Halt()  returns 0x00 (0000ms, 0856ms total)
TA900 000:865 JLINK_IsHalted()  returns TRUE (0000ms, 0856ms total)
TA900 000:865 JLINK_ReadMemU32(0xE000EDF0, 0x0001 Items, ...) -- CPU_ReadMem(4 bytes @ 0xE000EDF0) - Data: 03 00 03 00  returns 0x01 (0001ms, 0857ms total)
TA900 000:866 JLINK_WriteU32(0xE000EDF0, 0xA05F0003) -- CPU_WriteMem(4 bytes @ 0xE000EDF0)  returns 0x00 (0001ms, 0858ms total)
TA900 000:867 JLINK_WriteU32(0xE000EDFC, 0x01000000) -- CPU_WriteMem(4 bytes @ 0xE000EDFC)  returns 0x00 (0001ms, 0859ms total)
TA900 000:868 JLINK_GetHWStatus(...)  returns 0x00 (0000ms, 0859ms total)
TA900 000:868 JLINK_GetNumBPUnits(Type = 0xFFFFFF00)  returns 0x06 (0000ms, 0859ms total)
TA900 000:868 JLINK_GetNumBPUnits(Type = 0xF0)  returns 0x2000 (0000ms, 0859ms total)
TA900 000:868 JLINK_GetNumWPUnits()  returns 0x04 (0000ms, 0859ms total)
TA900 000:868 JLINK_GetSpeed()  returns 0x1388 (0000ms, 0859ms total)
TA900 000:868 JLINK_ReadMemU32(0xE000E004, 0x0001 Items, ...) -- CPU_ReadMem(4 bytes @ 0xE000E004) - Data: 02 00 00 00  returns 0x01 (0001ms, 0860ms total)
TA900 000:869 JLINK_ReadMemU32(0xE000E004, 0x0001 Items, ...) -- CPU_ReadMem(4 bytes @ 0xE000E004) - Data: 02 00 00 00  returns 0x01 (0001ms, 0861ms total)
TA900 000:870 JLINK_WriteMem(0xE0001000, 0x001C Bytes, ...) - Data: 01 00 00 00 00 00 00 00 00 00 00 00 00 00 00 00 ... -- CPU_WriteMem(28 bytes @ 0xE0001000)  returns 0x1C (0001ms, 0862ms total)
TA900 000:871 JLINK_ReadMem (0xE0001000, 0x001C Bytes, ...) -- CPU_ReadMem(28 bytes @ 0xE0001000) - Data: 01 00 00 40 00 00 00 00 00 00 00 00 00 00 00 00 ...  returns 0x00 (0001ms, 0863ms total)
TA900 000:872 JLINK_ReadReg(R15 (PC))  returns 0x080001A8 (0000ms, 0863ms total)
TA900 000:872 JLINK_ReadReg(XPSR)  returns 0x01000000 (0000ms, 0863ms total)
TA900 000:975 JLINK_SetResetType(JLINKARM_RESET_TYPE_NORMAL)  returns JLINKARM_RESET_TYPE_NORMAL (0000ms, 0863ms total)
TA900 000:975 JLINK_Reset() -- CPU_WriteMem(4 bytes @ 0xE000EDF0) -- CPU_WriteMem(4 bytes @ 0xE000EDFC) -- CPU_WriteMem(4 bytes @ 0xE000ED0C) -- CPU_ReadMem(4 bytes @ 0xE000EDF0) -- CPU_ReadMem(4 bytes @ 0xE000EDF0) -- CPU_WriteMem(4 bytes @ 0xE000EDF0) -- CPU_WriteMem(4 bytes @ 0xE000EDFC) -- CPU is running -- CPU_ReadMem(4 bytes @ 0xE000EDF0) >0x80 JTAG> >0x40 JTAG> >0x30 JTAG> >0x40 JTAG> >0x50 JTAG> >0x40 JTAG> -- CPU_WriteMem(4 bytes @ 0xE000EDFC) -- CPU_WriteMem(4 bytes @ 0xE0001028)
 -- CPU_WriteMem(4 bytes @ 0xE0001038) -- CPU_WriteMem(4 bytes @ 0xE0001048) -- CPU_WriteMem(4 bytes @ 0xE0001058) -- CPU_WriteMem(4 bytes @ 0xE0002000) -- CPU_ReadMem(4 bytes @ 0xE000EDFC) -- CPU_ReadMem(4 bytes @ 0xE0001000) (0030ms, 0893ms total)
TA900 001:005 JLINK_ReadReg(R15 (PC))  returns 0x080001A8 (0000ms, 0893ms total)
TA900 001:005 JLINK_ReadReg(XPSR)  returns 0x01000000 (0000ms, 0893ms total)
TA900 001:005 JLINK_ReadMemU32(0xE0001004, 0x0001 Items, ...) -- CPU_ReadMem(4 bytes @ 0xE0001004) - Data: AF 00 00 00  returns 0x01 (0001ms, 0894ms total)
TA900 001:090 JLINK_ReadMem (0x08000194, 0x003C Bytes, ...) -- CPU_ReadMem(128 bytes @ 0x08000180) -- Updating C cache (128 bytes @ 0x08000180) -- Read from C cache (60 bytes @ 0x08000194) - Data: DF F8 0C D0 00 F0 18 F8 00 48 00 47 69 2E 00 08 ...  returns 0x00 (0002ms, 0896ms total)
TAFF4 002:260 JLINK_SetBPEx(Addr = 0x08002E68, Type = 0xFFFFFFF2)  returns 0x00000001 (0000ms, 0896ms total)
TAFF4 002:260 JLINK_Go() -- CPU_ReadMem(4 bytes @ 0xE0001000) -- CPU_WriteMem(4 bytes @ 0xE0002008) -- CPU_WriteMem(4 bytes @ 0xE000200C) -- CPU_WriteMem(4 bytes @ 0xE0002010) -- CPU_WriteMem(4 bytes @ 0xE0002014) -- CPU_WriteMem(4 bytes @ 0xE0002018) -- CPU_WriteMem(4 bytes @ 0xE000201C) -- CPU_WriteMem(4 bytes @ 0xE0001004) (0004ms, 0900ms total)
TAFF4 002:364 JLINK_IsHalted()  returns TRUE (0003ms, 0903ms total)
TAFF4 002:367 JLINK_Halt()  returns 0x00 (0000ms, 0900ms total)
TAFF4 002:367 JLINK_IsHalted()  returns TRUE (0000ms, 0900ms total)
TAFF4 002:367 JLINK_IsHalted()  returns TRUE (0000ms, 0900ms total)
TAFF4 002:367 JLINK_IsHalted()  returns TRUE (0000ms, 0900ms total)
TAFF4 002:367 JLINK_ReadReg(R15 (PC))  returns 0x08002E68 (0000ms, 0900ms total)
TAFF4 002:367 JLINK_ReadReg(XPSR)  returns 0x61000000 (0000ms, 0900ms total)
TAFF4 002:367 JLINK_ClrBPEx(BPHandle = 0x00000001)  returns 0x00 (0000ms, 0900ms total)
TAFF4 002:367 JLINK_ReadMemU32(0xE000ED30, 0x0001 Items, ...) -- CPU_ReadMem(4 bytes @ 0xE000ED30) - Data: 02 00 00 00  returns 0x01 (0001ms, 0901ms total)
TAFF4 002:368 JLINK_ReadMemU32(0xE0001028, 0x0001 Items, ...) -- CPU_ReadMem(4 bytes @ 0xE0001028) - Data: 00 00 00 00  returns 0x01 (0001ms, 0902ms total)
TAFF4 002:369 JLINK_ReadMemU32(0xE0001038, 0x0001 Items, ...) -- CPU_ReadMem(4 bytes @ 0xE0001038) - Data: 00 02 00 00  returns 0x01 (0000ms, 0902ms total)
TAFF4 002:369 JLINK_ReadMemU32(0xE0001048, 0x0001 Items, ...) -- CPU_ReadMem(4 bytes @ 0xE0001048) - Data: 00 00 00 00  returns 0x01 (0001ms, 0903ms total)
TAFF4 002:370 JLINK_ReadMemU32(0xE0001058, 0x0001 Items, ...) -- CPU_ReadMem(4 bytes @ 0xE0001058) - Data: 00 00 00 00  returns 0x01 (0001ms, 0904ms total)
TAFF4 002:371 JLINK_ReadReg(R0)  returns 0x08002E69 (0000ms, 0904ms total)
TAFF4 002:371 JLINK_ReadReg(R1)  returns 0x20000AF8 (0000ms, 0904ms total)
TAFF4 002:371 JLINK_ReadReg(R2)  returns 0x00000000 (0000ms, 0904ms total)
TAFF4 002:371 JLINK_ReadReg(R3)  returns 0x08002E5B (0000ms, 0904ms total)
TAFF4 002:371 JLINK_ReadReg(R4)  returns 0x08002F20 (0000ms, 0904ms total)
TAFF4 002:371 JLINK_ReadReg(R5)  returns 0x08002F20 (0000ms, 0904ms total)
TAFF4 002:371 JLINK_ReadReg(R6)  returns 0x00000000 (0000ms, 0904ms total)
TAFF4 002:371 JLINK_ReadReg(R7)  returns 0x00000000 (0000ms, 0904ms total)
TAFF4 002:371 JLINK_ReadReg(R8)  returns 0x00000000 (0000ms, 0904ms total)
TAFF4 002:371 JLINK_ReadReg(R9)  returns 0x00000000 (0000ms, 0904ms total)
TAFF4 002:371 JLINK_ReadReg(R10)  returns 0x00000000 (0000ms, 0904ms total)
TAFF4 002:371 JLINK_ReadReg(R11)  returns 0x00000000 (0000ms, 0904ms total)
TAFF4 002:371 JLINK_ReadReg(R12)  returns 0x00000000 (0000ms, 0904ms total)
TAFF4 002:371 JLINK_ReadReg(R13 (SP))  returns 0x20000AF8 (0000ms, 0904ms total)
TAFF4 002:371 JLINK_ReadReg(R14)  returns 0x080001E9 (0000ms, 0904ms total)
TAFF4 002:371 JLINK_ReadReg(R15 (PC))  returns 0x08002E68 (0000ms, 0904ms total)
TAFF4 002:371 JLINK_ReadReg(XPSR)  returns 0x61000000 (0000ms, 0904ms total)
TAFF4 002:371 JLINK_ReadReg(MSP)  returns 0x20000AF8 (0000ms, 0904ms total)
TAFF4 002:371 JLINK_ReadReg(PSP)  returns 0x00000000 (0001ms, 0905ms total)
TAFF4 002:372 JLINK_ReadReg(CFBP)  returns 0x00000000 (0000ms, 0905ms total)
TAFF4 002:372 JLINK_ReadReg(FPSCR)  returns 0x00000000 (0003ms, 0908ms total)
TAFF4 002:375 JLINK_ReadReg(FPS0)  returns 0x00000000 (0000ms, 0908ms total)
TAFF4 002:375 JLINK_ReadReg(FPS1)  returns 0x00000000 (0000ms, 0908ms total)
TAFF4 002:375 JLINK_ReadReg(FPS2)  returns 0x00000000 (0000ms, 0908ms total)
TAFF4 002:375 JLINK_ReadReg(FPS3)  returns 0x00000000 (0000ms, 0908ms total)
TAFF4 002:375 JLINK_ReadReg(FPS4)  returns 0x00000000 (0000ms, 0908ms total)
TAFF4 002:375 JLINK_ReadReg(FPS5)  returns 0x00000000 (0000ms, 0908ms total)
TAFF4 002:375 JLINK_ReadReg(FPS6)  returns 0x00000000 (0000ms, 0908ms total)
TAFF4 002:375 JLINK_ReadReg(FPS7)  returns 0x00000000 (0000ms, 0908ms total)
TAFF4 002:375 JLINK_ReadReg(FPS8)  returns 0x00000000 (0000ms, 0908ms total)
TAFF4 002:375 JLINK_ReadReg(FPS9)  returns 0x00000000 (0001ms, 0909ms total)
TAFF4 002:376 JLINK_ReadReg(FPS10)  returns 0x00000000 (0000ms, 0909ms total)
TAFF4 002:376 JLINK_ReadReg(FPS11)  returns 0x00000000 (0000ms, 0909ms total)
TAFF4 002:376 JLINK_ReadReg(FPS12)  returns 0x00000000 (0000ms, 0909ms total)
TAFF4 002:376 JLINK_ReadReg(FPS13)  returns 0x00000000 (0000ms, 0909ms total)
TAFF4 002:376 JLINK_ReadReg(FPS14)  returns 0x00000000 (0000ms, 0909ms total)
TAFF4 002:376 JLINK_ReadReg(FPS15)  returns 0x00000000 (0000ms, 0909ms total)
TAFF4 002:376 JLINK_ReadReg(FPS16)  returns 0x00000000 (0000ms, 0909ms total)
TAFF4 002:376 JLINK_ReadReg(FPS17)  returns 0x00000000 (0000ms, 0909ms total)
TAFF4 002:376 JLINK_ReadReg(FPS18)  returns 0x00000000 (0000ms, 0909ms total)
TAFF4 002:376 JLINK_ReadReg(FPS19)  returns 0x00000000 (0000ms, 0909ms total)
TAFF4 002:376 JLINK_ReadReg(FPS20)  returns 0x00000000 (0000ms, 0909ms total)
TAFF4 002:376 JLINK_ReadReg(FPS21)  returns 0x00000000 (0000ms, 0909ms total)
TAFF4 002:376 JLINK_ReadReg(FPS22)  returns 0x00000000 (0000ms, 0909ms total)
TAFF4 002:376 JLINK_ReadReg(FPS23)  returns 0x00000000 (0000ms, 0909ms total)
TAFF4 002:376 JLINK_ReadReg(FPS24)  returns 0x00000000 (0000ms, 0909ms total)
TAFF4 002:376 JLINK_ReadReg(FPS25)  returns 0x00000000 (0000ms, 0909ms total)
TAFF4 002:376 JLINK_ReadReg(FPS26)  returns 0x00000000 (0000ms, 0909ms total)
TAFF4 002:376 JLINK_ReadReg(FPS27)  returns 0x00000000 (0000ms, 0909ms total)
TAFF4 002:376 JLINK_ReadReg(FPS28)  returns 0x00000000 (0000ms, 0909ms total)
TAFF4 002:376 JLINK_ReadReg(FPS29)  returns 0x00000000 (0000ms, 0909ms total)
TAFF4 002:376 JLINK_ReadReg(FPS30)  returns 0x00000000 (0000ms, 0909ms total)
TAFF4 002:376 JLINK_ReadReg(FPS31)  returns 0x00000000 (0000ms, 0909ms total)
TA900 002:379 JLINK_ReadMemU32(0xE0001004, 0x0001 Items, ...) -- CPU_ReadMem(4 bytes @ 0xE0001004) - Data: 18 11 00 00  returns 0x01 (0001ms, 0910ms total)
TA900 002:385 JLINK_ReadMem (0x08002D84, 0x003C Bytes, ...) -- CPU_ReadMem(64 bytes @ 0x08002D80) -- Updating C cache (64 bytes @ 0x08002D80) -- Read from C cache (60 bytes @ 0x08002D84) - Data: 2D E9 F0 47 1D 46 90 46 0E 46 04 46 FD F7 86 FE ...  returns 0x00 (0001ms, 0911ms total)
TA900 002:386 JLINK_ReadMem (0x08002DC0, 0x003C Bytes, ...) -- CPU_ReadMem(64 bytes @ 0x08002DC0) -- Updating C cache (64 bytes @ 0x08002DC0) -- Read from C cache (60 bytes @ 0x08002DC0) - Data: 29 E0 68 1C 22 D0 25 B1 FD F7 6A FE C0 1B A8 42 ...  returns 0x00 (0001ms, 0912ms total)
TA900 002:387 JLINK_ReadMem (0x08002DFC, 0x003C Bytes, ...) -- CPU_ReadMem(64 bytes @ 0x08002E00) -- Updating C cache (64 bytes @ 0x08002E00) -- Read from C cache (60 bytes @ 0x08002DFC) - Data: 69 80 84 F8 6A 80 84 F8 68 90 03 20 BD E8 F0 87 ...  returns 0x00 (0001ms, 0913ms total)
TA900 002:388 JLINK_ReadMem (0x08002E38, 0x003C Bytes, ...) -- CPU_ReadMem(64 bytes @ 0x08002E40) -- Updating C cache (64 bytes @ 0x08002E40) -- Read from C cache (60 bytes @ 0x08002E38) - Data: 01 70 00 78 70 47 00 00 0D 00 00 20 00 20 70 47 ...  returns 0x00 (0002ms, 0915ms total)
TAFF4 011:949 JLINK_Step() -- Read from C cache (2 bytes @ 0x08002E68) -- CPU_ReadMem(4 bytes @ 0xE000ED18) -- CPU_WriteMem(4 bytes @ 0xE000ED18) -- CPU_ReadMem(4 bytes @ 0xE000ED18) -- CPU_WriteMem(4 bytes @ 0xE000ED18) -- Read from C cache (2 bytes @ 0x08002E6A) -- Simulated  returns 0x00 (0004ms, 0919ms total)
TAFF4 011:953 JLINK_ReadReg(R15 (PC))  returns 0x08000ABC (0000ms, 0919ms total)
TAFF4 011:953 JLINK_ReadReg(XPSR)  returns 0x61000000 (0000ms, 0919ms total)
TAFF4 011:953 JLINK_ReadReg(R0)  returns 0x08002E69 (0000ms, 0919ms total)
TAFF4 011:953 JLINK_ReadReg(R1)  returns 0x20000AF8 (0000ms, 0919ms total)
TAFF4 011:953 JLINK_ReadReg(R2)  returns 0x00000000 (0000ms, 0919ms total)
TAFF4 011:953 JLINK_ReadReg(R3)  returns 0x08002E5B (0000ms, 0919ms total)
TAFF4 011:953 JLINK_ReadReg(R4)  returns 0x08002F20 (0000ms, 0919ms total)
TAFF4 011:953 JLINK_ReadReg(R5)  returns 0x08002F20 (0000ms, 0919ms total)
TAFF4 011:953 JLINK_ReadReg(R6)  returns 0x00000000 (0000ms, 0919ms total)
TAFF4 011:953 JLINK_ReadReg(R7)  returns 0x00000000 (0000ms, 0919ms total)
TAFF4 011:953 JLINK_ReadReg(R8)  returns 0x00000000 (0000ms, 0919ms total)
TAFF4 011:953 JLINK_ReadReg(R9)  returns 0x00000000 (0000ms, 0919ms total)
TAFF4 011:953 JLINK_ReadReg(R10)  returns 0x00000000 (0000ms, 0919ms total)
TAFF4 011:953 JLINK_ReadReg(R11)  returns 0x00000000 (0000ms, 0919ms total)
TAFF4 011:953 JLINK_ReadReg(R12)  returns 0x00000000 (0000ms, 0919ms total)
TAFF4 011:953 JLINK_ReadReg(R13 (SP))  returns 0x20000AF8 (0000ms, 0919ms total)
TAFF4 011:953 JLINK_ReadReg(R14)  returns 0x08002E6D (0000ms, 0919ms total)
TAFF4 011:953 JLINK_ReadReg(R15 (PC))  returns 0x08000ABC (0000ms, 0919ms total)
TAFF4 011:953 JLINK_ReadReg(XPSR)  returns 0x61000000 (0000ms, 0919ms total)
TAFF4 011:953 JLINK_ReadReg(MSP)  returns 0x20000AF8 (0000ms, 0919ms total)
TAFF4 011:953 JLINK_ReadReg(PSP)  returns 0x00000000 (0000ms, 0919ms total)
TAFF4 011:953 JLINK_ReadReg(CFBP)  returns 0x00000000 (0000ms, 0919ms total)
TAFF4 011:953 JLINK_ReadReg(FPSCR)  returns 0x00000000 (0000ms, 0919ms total)
TAFF4 011:954 JLINK_ReadReg(FPS0)  returns 0x00000000 (0000ms, 0919ms total)
TAFF4 011:954 JLINK_ReadReg(FPS1)  returns 0x00000000 (0000ms, 0919ms total)
TAFF4 011:954 JLINK_ReadReg(FPS2)  returns 0x00000000 (0000ms, 0919ms total)
TAFF4 011:954 JLINK_ReadReg(FPS3)  returns 0x00000000 (0000ms, 0919ms total)
TAFF4 011:954 JLINK_ReadReg(FPS4)  returns 0x00000000 (0000ms, 0919ms total)
TAFF4 011:954 JLINK_ReadReg(FPS5)  returns 0x00000000 (0000ms, 0919ms total)
TAFF4 011:954 JLINK_ReadReg(FPS6)  returns 0x00000000 (0000ms, 0919ms total)
TAFF4 011:954 JLINK_ReadReg(FPS7)  returns 0x00000000 (0000ms, 0919ms total)
TAFF4 011:954 JLINK_ReadReg(FPS8)  returns 0x00000000 (0000ms, 0919ms total)
TAFF4 011:954 JLINK_ReadReg(FPS9)  returns 0x00000000 (0000ms, 0919ms total)
TAFF4 011:954 JLINK_ReadReg(FPS10)  returns 0x00000000 (0000ms, 0919ms total)
TAFF4 011:954 JLINK_ReadReg(FPS11)  returns 0x00000000 (0000ms, 0919ms total)
TAFF4 011:954 JLINK_ReadReg(FPS12)  returns 0x00000000 (0000ms, 0919ms total)
TAFF4 011:954 JLINK_ReadReg(FPS13)  returns 0x00000000 (0000ms, 0919ms total)
TAFF4 011:954 JLINK_ReadReg(FPS14)  returns 0x00000000 (0000ms, 0919ms total)
TAFF4 011:954 JLINK_ReadReg(FPS15)  returns 0x00000000 (0000ms, 0919ms total)
TAFF4 011:954 JLINK_ReadReg(FPS16)  returns 0x00000000 (0000ms, 0919ms total)
TAFF4 011:954 JLINK_ReadReg(FPS17)  returns 0x00000000 (0000ms, 0919ms total)
TAFF4 011:954 JLINK_ReadReg(FPS18)  returns 0x00000000 (0000ms, 0919ms total)
TAFF4 011:954 JLINK_ReadReg(FPS19)  returns 0x00000000 (0000ms, 0919ms total)
TAFF4 011:954 JLINK_ReadReg(FPS20)  returns 0x00000000 (0000ms, 0919ms total)
TAFF4 011:954 JLINK_ReadReg(FPS21)  returns 0x00000000 (0000ms, 0919ms total)
TAFF4 011:954 JLINK_ReadReg(FPS22)  returns 0x00000000 (0000ms, 0919ms total)
TAFF4 011:954 JLINK_ReadReg(FPS23)  returns 0x00000000 (0000ms, 0919ms total)
TAFF4 011:954 JLINK_ReadReg(FPS24)  returns 0x00000000 (0000ms, 0919ms total)
TAFF4 011:954 JLINK_ReadReg(FPS25)  returns 0x00000000 (0000ms, 0919ms total)
TAFF4 011:954 JLINK_ReadReg(FPS26)  returns 0x00000000 (0000ms, 0919ms total)
TAFF4 011:954 JLINK_ReadReg(FPS27)  returns 0x00000000 (0000ms, 0919ms total)
TAFF4 011:954 JLINK_ReadReg(FPS28)  returns 0x00000000 (0000ms, 0919ms total)
TAFF4 011:954 JLINK_ReadReg(FPS29)  returns 0x00000000 (0000ms, 0919ms total)
TAFF4 011:954 JLINK_ReadReg(FPS30)  returns 0x00000000 (0000ms, 0919ms total)
TAFF4 011:954 JLINK_ReadReg(FPS31)  returns 0x00000000 (0000ms, 0919ms total)
TA900 011:957 JLINK_ReadMemU32(0xE0001004, 0x0001 Items, ...) - Data: 18 11 00 00  returns 0x01 (0000ms, 0919ms total)
TA900 011:970 JLINK_ReadMem (0x080009BC, 0x003C Bytes, ...) -- CPU_ReadMem(128 bytes @ 0x08000980) -- Updating C cache (128 bytes @ 0x08000980) -- Read from C cache (60 bytes @ 0x080009BC) - Data: 15 7C 09 FA 0C F5 AC 43 B0 F1 90 4F 05 D0 2C 4D ...  returns 0x00 (0002ms, 0921ms total)
TA900 011:972 JLINK_ReadMem (0x080009F8, 0x003C Bytes, ...) -- CPU_ReadMem(64 bytes @ 0x08000A00) -- Updating C cache (64 bytes @ 0x08000A00) -- Read from C cache (60 bytes @ 0x080009F8) - Data: 24 4D A8 42 01 D1 05 25 05 E0 23 4D A8 42 01 D1 ...  returns 0x00 (0001ms, 0922ms total)
TA900 011:973 JLINK_ReadMem (0x08000A34, 0x003C Bytes, ...) -- CPU_ReadMem(64 bytes @ 0x08000A40) -- Updating C cache (64 bytes @ 0x08000A40) -- Read from C cache (60 bytes @ 0x08000A34) - Data: 00 D5 14 43 2C 60 0D 4D 08 35 2C 68 4E 68 94 43 ...  returns 0x00 (0001ms, 0923ms total)
TA900 011:974 JLINK_ReadMem (0x08000A94, 0x003C Bytes, ...) -- CPU_ReadMem(128 bytes @ 0x08000A80) -- Updating C cache (128 bytes @ 0x08000A80) -- Read from C cache (60 bytes @ 0x08000A94) - Data: 0A B1 81 61 70 47 81 62 70 47 00 00 01 48 00 68 ...  returns 0x00 (0002ms, 0925ms total)
TAFF4 013:438 JLINK_Step() -- Read from C cache (2 bytes @ 0x08000ABC) -- Read from C cache (4 bytes @ 0x08000ADC) -- Simulated  returns 0x00 (0001ms, 0926ms total)
TAFF4 013:439 JLINK_ReadReg(R15 (PC))  returns 0x08000ABE (0000ms, 0926ms total)
TAFF4 013:439 JLINK_ReadReg(XPSR)  returns 0x61000000 (0000ms, 0926ms total)
TAFF4 013:439 JLINK_ReadReg(R0)  returns 0x40022000 (0000ms, 0926ms total)
TAFF4 013:439 JLINK_ReadReg(R1)  returns 0x20000AF8 (0000ms, 0926ms total)
TAFF4 013:439 JLINK_ReadReg(R2)  returns 0x00000000 (0000ms, 0926ms total)
TAFF4 013:439 JLINK_ReadReg(R3)  returns 0x08002E5B (0001ms, 0927ms total)
TAFF4 013:440 JLINK_ReadReg(R4)  returns 0x08002F20 (0000ms, 0927ms total)
TAFF4 013:440 JLINK_ReadReg(R5)  returns 0x08002F20 (0000ms, 0927ms total)
TAFF4 013:440 JLINK_ReadReg(R6)  returns 0x00000000 (0000ms, 0927ms total)
TAFF4 013:440 JLINK_ReadReg(R7)  returns 0x00000000 (0000ms, 0927ms total)
TAFF4 013:440 JLINK_ReadReg(R8)  returns 0x00000000 (0000ms, 0927ms total)
TAFF4 013:440 JLINK_ReadReg(R9)  returns 0x00000000 (0000ms, 0927ms total)
TAFF4 013:440 JLINK_ReadReg(R10)  returns 0x00000000 (0000ms, 0927ms total)
TAFF4 013:440 JLINK_ReadReg(R11)  returns 0x00000000 (0000ms, 0927ms total)
TAFF4 013:440 JLINK_ReadReg(R12)  returns 0x00000000 (0000ms, 0927ms total)
TAFF4 013:440 JLINK_ReadReg(R13 (SP))  returns 0x20000AF8 (0000ms, 0927ms total)
TAFF4 013:440 JLINK_ReadReg(R14)  returns 0x08002E6D (0000ms, 0927ms total)
TAFF4 013:440 JLINK_ReadReg(R15 (PC))  returns 0x08000ABE (0000ms, 0927ms total)
TAFF4 013:440 JLINK_ReadReg(XPSR)  returns 0x61000000 (0000ms, 0927ms total)
TAFF4 013:440 JLINK_ReadReg(MSP)  returns 0x20000AF8 (0000ms, 0927ms total)
TAFF4 013:440 JLINK_ReadReg(PSP)  returns 0x00000000 (0000ms, 0927ms total)
TAFF4 013:440 JLINK_ReadReg(CFBP)  returns 0x00000000 (0000ms, 0927ms total)
TAFF4 013:440 JLINK_ReadReg(FPSCR)  returns 0x00000000 (0000ms, 0927ms total)
TAFF4 013:440 JLINK_ReadReg(FPS0)  returns 0x00000000 (0000ms, 0927ms total)
TAFF4 013:440 JLINK_ReadReg(FPS1)  returns 0x00000000 (0000ms, 0927ms total)
TAFF4 013:440 JLINK_ReadReg(FPS2)  returns 0x00000000 (0000ms, 0927ms total)
TAFF4 013:440 JLINK_ReadReg(FPS3)  returns 0x00000000 (0000ms, 0927ms total)
TAFF4 013:440 JLINK_ReadReg(FPS4)  returns 0x00000000 (0000ms, 0927ms total)
TAFF4 013:440 JLINK_ReadReg(FPS5)  returns 0x00000000 (0000ms, 0927ms total)
TAFF4 013:440 JLINK_ReadReg(FPS6)  returns 0x00000000 (0000ms, 0927ms total)
TAFF4 013:440 JLINK_ReadReg(FPS7)  returns 0x00000000 (0000ms, 0927ms total)
TAFF4 013:440 JLINK_ReadReg(FPS8)  returns 0x00000000 (0000ms, 0927ms total)
TAFF4 013:440 JLINK_ReadReg(FPS9)  returns 0x00000000 (0000ms, 0927ms total)
TAFF4 013:440 JLINK_ReadReg(FPS10)  returns 0x00000000 (0000ms, 0927ms total)
TAFF4 013:440 JLINK_ReadReg(FPS11)  returns 0x00000000 (0000ms, 0927ms total)
TAFF4 013:440 JLINK_ReadReg(FPS12)  returns 0x00000000 (0000ms, 0927ms total)
TAFF4 013:440 JLINK_ReadReg(FPS13)  returns 0x00000000 (0000ms, 0927ms total)
TAFF4 013:440 JLINK_ReadReg(FPS14)  returns 0x00000000 (0000ms, 0927ms total)
TAFF4 013:440 JLINK_ReadReg(FPS15)  returns 0x00000000 (0000ms, 0927ms total)
TAFF4 013:440 JLINK_ReadReg(FPS16)  returns 0x00000000 (0000ms, 0927ms total)
TAFF4 013:440 JLINK_ReadReg(FPS17)  returns 0x00000000 (0000ms, 0927ms total)
TAFF4 013:440 JLINK_ReadReg(FPS18)  returns 0x00000000 (0000ms, 0927ms total)
TAFF4 013:440 JLINK_ReadReg(FPS19)  returns 0x00000000 (0000ms, 0927ms total)
TAFF4 013:440 JLINK_ReadReg(FPS20)  returns 0x00000000 (0000ms, 0927ms total)
TAFF4 013:441 JLINK_ReadReg(FPS21)  returns 0x00000000 (0000ms, 0928ms total)
TAFF4 013:441 JLINK_ReadReg(FPS22)  returns 0x00000000 (0000ms, 0928ms total)
TAFF4 013:441 JLINK_ReadReg(FPS23)  returns 0x00000000 (0000ms, 0928ms total)
TAFF4 013:441 JLINK_ReadReg(FPS24)  returns 0x00000000 (0000ms, 0928ms total)
TAFF4 013:441 JLINK_ReadReg(FPS25)  returns 0x00000000 (0000ms, 0928ms total)
TAFF4 013:441 JLINK_ReadReg(FPS26)  returns 0x00000000 (0000ms, 0928ms total)
TAFF4 013:441 JLINK_ReadReg(FPS27)  returns 0x00000000 (0000ms, 0928ms total)
TAFF4 013:441 JLINK_ReadReg(FPS28)  returns 0x00000000 (0000ms, 0928ms total)
TAFF4 013:441 JLINK_ReadReg(FPS29)  returns 0x00000000 (0000ms, 0928ms total)
TAFF4 013:441 JLINK_ReadReg(FPS30)  returns 0x00000000 (0000ms, 0928ms total)
TAFF4 013:441 JLINK_ReadReg(FPS31)  returns 0x00000000 (0000ms, 0928ms total)
TA900 013:441 JLINK_ReadMemU32(0xE0001004, 0x0001 Items, ...) - Data: 18 11 00 00  returns 0x01 (0000ms, 0928ms total)
TA900 013:448 JLINK_ReadMem (0x08000ABC, 0x003C Bytes, ...) -- Read from C cache (60 bytes @ 0x08000ABC) - Data: 07 48 10 B5 01 68 41 F0 10 01 01 60 03 20 00 F0 ...  returns 0x00 (0000ms, 0928ms total)
TAFF4 014:038 JLINK_Step() -- Read from C cache (2 bytes @ 0x08000ABE) -- CPU_WriteMem(8 bytes @ 0x20000AF0) -- Simulated  returns 0x00 (0002ms, 0930ms total)
TAFF4 014:040 JLINK_ReadReg(R15 (PC))  returns 0x08000AC0 (0000ms, 0930ms total)
TAFF4 014:040 JLINK_ReadReg(XPSR)  returns 0x61000000 (0000ms, 0930ms total)
TAFF4 014:040 JLINK_Step() -- Read from C cache (2 bytes @ 0x08000AC0) -- Not simulated -- CPU_WriteMem(4 bytes @ 0xE0002008) -- CPU_WriteMem(4 bytes @ 0xE0001004)  returns 0x00 (0005ms, 0935ms total)
TAFF4 014:045 JLINK_ReadReg(R15 (PC))  returns 0x08000AC2 (0000ms, 0935ms total)
TAFF4 014:045 JLINK_ReadReg(XPSR)  returns 0x61000000 (0000ms, 0935ms total)
TAFF4 014:045 JLINK_Step() -- CPU_ReadMem(64 bytes @ 0x08000AC0) -- Updating C cache (64 bytes @ 0x08000AC0) -- Read from C cache (2 bytes @ 0x08000AC2) -- CPU_ReadMem(4 bytes @ 0xE0001004) -- Read from C cache (2 bytes @ 0x08000AC4) -- Simulated  returns 0x00 (0002ms, 0937ms total)
TAFF4 014:047 JLINK_ReadReg(R15 (PC))  returns 0x08000AC6 (0001ms, 0938ms total)
TAFF4 014:048 JLINK_ReadReg(XPSR)  returns 0x61000000 (0000ms, 0938ms total)
TAFF4 014:048 JLINK_Step() -- Read from C cache (2 bytes @ 0x08000AC6) -- Not simulated -- CPU_WriteMem(4 bytes @ 0xE0001004)  returns 0x00 (0004ms, 0942ms total)
TAFF4 014:052 JLINK_ReadReg(R15 (PC))  returns 0x08000AC8 (0000ms, 0942ms total)
TAFF4 014:052 JLINK_ReadReg(XPSR)  returns 0x61000000 (0000ms, 0942ms total)
TAFF4 014:052 JLINK_ReadReg(R0)  returns 0x40022000 (0000ms, 0942ms total)
TAFF4 014:052 JLINK_ReadReg(R1)  returns 0x00000030 (0000ms, 0942ms total)
TAFF4 014:052 JLINK_ReadReg(R2)  returns 0x00000000 (0000ms, 0942ms total)
TAFF4 014:052 JLINK_ReadReg(R3)  returns 0x08002E5B (0000ms, 0942ms total)
TAFF4 014:052 JLINK_ReadReg(R4)  returns 0x08002F20 (0000ms, 0942ms total)
TAFF4 014:052 JLINK_ReadReg(R5)  returns 0x08002F20 (0000ms, 0942ms total)
TAFF4 014:052 JLINK_ReadReg(R6)  returns 0x00000000 (0000ms, 0942ms total)
TAFF4 014:052 JLINK_ReadReg(R7)  returns 0x00000000 (0000ms, 0942ms total)
TAFF4 014:052 JLINK_ReadReg(R8)  returns 0x00000000 (0001ms, 0943ms total)
TAFF4 014:053 JLINK_ReadReg(R9)  returns 0x00000000 (0000ms, 0943ms total)
TAFF4 014:053 JLINK_ReadReg(R10)  returns 0x00000000 (0000ms, 0943ms total)
TAFF4 014:053 JLINK_ReadReg(R11)  returns 0x00000000 (0000ms, 0943ms total)
TAFF4 014:053 JLINK_ReadReg(R12)  returns 0x00000000 (0000ms, 0943ms total)
TAFF4 014:053 JLINK_ReadReg(R13 (SP))  returns 0x20000AF0 (0000ms, 0943ms total)
TAFF4 014:053 JLINK_ReadReg(R14)  returns 0x08002E6D (0000ms, 0943ms total)
TAFF4 014:053 JLINK_ReadReg(R15 (PC))  returns 0x08000AC8 (0000ms, 0943ms total)
TAFF4 014:053 JLINK_ReadReg(XPSR)  returns 0x61000000 (0000ms, 0943ms total)
TAFF4 014:053 JLINK_ReadReg(MSP)  returns 0x20000AF0 (0000ms, 0943ms total)
TAFF4 014:053 JLINK_ReadReg(PSP)  returns 0x00000000 (0000ms, 0943ms total)
TAFF4 014:053 JLINK_ReadReg(CFBP)  returns 0x00000000 (0000ms, 0943ms total)
TAFF4 014:053 JLINK_ReadReg(FPSCR)  returns 0x00000000 (0004ms, 0947ms total)
TAFF4 014:057 JLINK_ReadReg(FPS0)  returns 0x00000000 (0000ms, 0947ms total)
TAFF4 014:057 JLINK_ReadReg(FPS1)  returns 0x00000000 (0000ms, 0947ms total)
TAFF4 014:057 JLINK_ReadReg(FPS2)  returns 0x00000000 (0000ms, 0947ms total)
TAFF4 014:057 JLINK_ReadReg(FPS3)  returns 0x00000000 (0000ms, 0947ms total)
TAFF4 014:057 JLINK_ReadReg(FPS4)  returns 0x00000000 (0000ms, 0947ms total)
TAFF4 014:057 JLINK_ReadReg(FPS5)  returns 0x00000000 (0000ms, 0947ms total)
TAFF4 014:057 JLINK_ReadReg(FPS6)  returns 0x00000000 (0000ms, 0947ms total)
TAFF4 014:057 JLINK_ReadReg(FPS7)  returns 0x00000000 (0000ms, 0947ms total)
TAFF4 014:057 JLINK_ReadReg(FPS8)  returns 0x00000000 (0000ms, 0947ms total)
TAFF4 014:057 JLINK_ReadReg(FPS9)  returns 0x00000000 (0000ms, 0947ms total)
TAFF4 014:057 JLINK_ReadReg(FPS10)  returns 0x00000000 (0000ms, 0947ms total)
TAFF4 014:057 JLINK_ReadReg(FPS11)  returns 0x00000000 (0000ms, 0947ms total)
TAFF4 014:057 JLINK_ReadReg(FPS12)  returns 0x00000000 (0000ms, 0947ms total)
TAFF4 014:057 JLINK_ReadReg(FPS13)  returns 0x00000000 (0000ms, 0947ms total)
TAFF4 014:057 JLINK_ReadReg(FPS14)  returns 0x00000000 (0000ms, 0947ms total)
TAFF4 014:057 JLINK_ReadReg(FPS15)  returns 0x00000000 (0000ms, 0947ms total)
TAFF4 014:057 JLINK_ReadReg(FPS16)  returns 0x00000000 (0000ms, 0947ms total)
TAFF4 014:057 JLINK_ReadReg(FPS17)  returns 0x00000000 (0000ms, 0947ms total)
TAFF4 014:057 JLINK_ReadReg(FPS18)  returns 0x00000000 (0000ms, 0947ms total)
TAFF4 014:057 JLINK_ReadReg(FPS19)  returns 0x00000000 (0000ms, 0947ms total)
TAFF4 014:057 JLINK_ReadReg(FPS20)  returns 0x00000000 (0000ms, 0947ms total)
TAFF4 014:057 JLINK_ReadReg(FPS21)  returns 0x00000000 (0000ms, 0947ms total)
TAFF4 014:057 JLINK_ReadReg(FPS22)  returns 0x00000000 (0000ms, 0947ms total)
TAFF4 014:057 JLINK_ReadReg(FPS23)  returns 0x00000000 (0000ms, 0947ms total)
TAFF4 014:057 JLINK_ReadReg(FPS24)  returns 0x00000000 (0000ms, 0947ms total)
TAFF4 014:057 JLINK_ReadReg(FPS25)  returns 0x00000000 (0000ms, 0947ms total)
TAFF4 014:057 JLINK_ReadReg(FPS26)  returns 0x00000000 (0000ms, 0947ms total)
TAFF4 014:057 JLINK_ReadReg(FPS27)  returns 0x00000000 (0001ms, 0948ms total)
TAFF4 014:058 JLINK_ReadReg(FPS28)  returns 0x00000000 (0000ms, 0948ms total)
TAFF4 014:058 JLINK_ReadReg(FPS29)  returns 0x00000000 (0000ms, 0948ms total)
TAFF4 014:058 JLINK_ReadReg(FPS30)  returns 0x00000000 (0000ms, 0948ms total)
TAFF4 014:058 JLINK_ReadReg(FPS31)  returns 0x00000000 (0000ms, 0948ms total)
TA900 014:058 JLINK_ReadMem (0x20000AF4, 0x0004 Bytes, ...) -- CPU_ReadMem(64 bytes @ 0x20000AC0) -- Updating C cache (64 bytes @ 0x20000AC0) -- Read from C cache (4 bytes @ 0x20000AF4) - Data: 6D 2E 00 08  returns 0x00 (0001ms, 0949ms total)
TA900 014:059 JLINK_ReadMem (0x20000AF0, 0x0004 Bytes, ...) -- Read from C cache (4 bytes @ 0x20000AF0) - Data: 20 2F 00 08  returns 0x00 (0000ms, 0949ms total)
TA900 014:059 JLINK_ReadMemU32(0xE0001004, 0x0001 Items, ...) -- CPU_ReadMem(4 bytes @ 0xE0001004) - Data: 22 11 00 00  returns 0x01 (0001ms, 0950ms total)
TA900 014:068 JLINK_ReadMem (0x08000ABE, 0x0002 Bytes, ...) -- CPU_ReadMem(64 bytes @ 0x08000A80) -- Updating C cache (64 bytes @ 0x08000A80) -- Read from C cache (2 bytes @ 0x08000ABE) - Data: 10 B5  returns 0x00 (0001ms, 0951ms total)
TA900 014:069 JLINK_ReadMem (0x08000AC0, 0x003C Bytes, ...) -- CPU_ReadMem(64 bytes @ 0x08000AC0) -- Updating C cache (64 bytes @ 0x08000AC0) -- Read from C cache (60 bytes @ 0x08000AC0) - Data: 01 68 41 F0 10 01 01 60 03 20 00 F0 75 F8 00 20 ...  returns 0x00 (0001ms, 0952ms total)
TAFF4 014:566 JLINK_Step() -- Read from C cache (2 bytes @ 0x08000AC8) -- Simulated  returns 0x00 (0002ms, 0954ms total)
TAFF4 014:568 JLINK_ReadReg(R15 (PC))  returns 0x08000ACA (0000ms, 0954ms total)
TAFF4 014:568 JLINK_ReadReg(XPSR)  returns 0x21000000 (0000ms, 0954ms total)
TAFF4 014:568 JLINK_Step() -- Read from C cache (2 bytes @ 0x08000ACA) -- Read from C cache (2 bytes @ 0x08000ACC) -- Simulated  returns 0x00 (0000ms, 0954ms total)
TAFF4 014:568 JLINK_ReadReg(R15 (PC))  returns 0x08000BB8 (0000ms, 0954ms total)
TAFF4 014:568 JLINK_ReadReg(XPSR)  returns 0x21000000 (0000ms, 0954ms total)
TAFF4 014:568 JLINK_ReadReg(R0)  returns 0x00000003 (0000ms, 0954ms total)
TAFF4 014:568 JLINK_ReadReg(R1)  returns 0x00000030 (0000ms, 0954ms total)
TAFF4 014:568 JLINK_ReadReg(R2)  returns 0x00000000 (0000ms, 0954ms total)
TAFF4 014:568 JLINK_ReadReg(R3)  returns 0x08002E5B (0000ms, 0954ms total)
TAFF4 014:568 JLINK_ReadReg(R4)  returns 0x08002F20 (0000ms, 0954ms total)
TAFF4 014:568 JLINK_ReadReg(R5)  returns 0x08002F20 (0000ms, 0954ms total)
TAFF4 014:569 JLINK_ReadReg(R6)  returns 0x00000000 (0000ms, 0955ms total)
TAFF4 014:569 JLINK_ReadReg(R7)  returns 0x00000000 (0000ms, 0955ms total)
TAFF4 014:569 JLINK_ReadReg(R8)  returns 0x00000000 (0000ms, 0955ms total)
TAFF4 014:569 JLINK_ReadReg(R9)  returns 0x00000000 (0000ms, 0955ms total)
TAFF4 014:569 JLINK_ReadReg(R10)  returns 0x00000000 (0000ms, 0955ms total)
TAFF4 014:569 JLINK_ReadReg(R11)  returns 0x00000000 (0000ms, 0955ms total)
TAFF4 014:569 JLINK_ReadReg(R12)  returns 0x00000000 (0000ms, 0955ms total)
TAFF4 014:569 JLINK_ReadReg(R13 (SP))  returns 0x20000AF0 (0000ms, 0955ms total)
TAFF4 014:569 JLINK_ReadReg(R14)  returns 0x08000ACF (0000ms, 0955ms total)
TAFF4 014:569 JLINK_ReadReg(R15 (PC))  returns 0x08000BB8 (0000ms, 0955ms total)
TAFF4 014:569 JLINK_ReadReg(XPSR)  returns 0x21000000 (0000ms, 0955ms total)
TAFF4 014:569 JLINK_ReadReg(MSP)  returns 0x20000AF0 (0000ms, 0955ms total)
TAFF4 014:569 JLINK_ReadReg(PSP)  returns 0x00000000 (0000ms, 0955ms total)
TAFF4 014:569 JLINK_ReadReg(CFBP)  returns 0x00000000 (0000ms, 0955ms total)
TAFF4 014:569 JLINK_ReadReg(FPSCR)  returns 0x00000000 (0000ms, 0955ms total)
TAFF4 014:569 JLINK_ReadReg(FPS0)  returns 0x00000000 (0000ms, 0955ms total)
TAFF4 014:569 JLINK_ReadReg(FPS1)  returns 0x00000000 (0000ms, 0955ms total)
TAFF4 014:569 JLINK_ReadReg(FPS2)  returns 0x00000000 (0000ms, 0955ms total)
TAFF4 014:569 JLINK_ReadReg(FPS3)  returns 0x00000000 (0000ms, 0955ms total)
TAFF4 014:569 JLINK_ReadReg(FPS4)  returns 0x00000000 (0000ms, 0955ms total)
TAFF4 014:569 JLINK_ReadReg(FPS5)  returns 0x00000000 (0000ms, 0955ms total)
TAFF4 014:569 JLINK_ReadReg(FPS6)  returns 0x00000000 (0000ms, 0955ms total)
TAFF4 014:569 JLINK_ReadReg(FPS7)  returns 0x00000000 (0000ms, 0955ms total)
TAFF4 014:569 JLINK_ReadReg(FPS8)  returns 0x00000000 (0000ms, 0955ms total)
TAFF4 014:569 JLINK_ReadReg(FPS9)  returns 0x00000000 (0000ms, 0955ms total)
TAFF4 014:569 JLINK_ReadReg(FPS10)  returns 0x00000000 (0000ms, 0955ms total)
TAFF4 014:569 JLINK_ReadReg(FPS11)  returns 0x00000000 (0000ms, 0955ms total)
TAFF4 014:569 JLINK_ReadReg(FPS12)  returns 0x00000000 (0000ms, 0955ms total)
TAFF4 014:569 JLINK_ReadReg(FPS13)  returns 0x00000000 (0000ms, 0955ms total)
TAFF4 014:569 JLINK_ReadReg(FPS14)  returns 0x00000000 (0000ms, 0955ms total)
TAFF4 014:569 JLINK_ReadReg(FPS15)  returns 0x00000000 (0000ms, 0955ms total)
TAFF4 014:569 JLINK_ReadReg(FPS16)  returns 0x00000000 (0000ms, 0955ms total)
TAFF4 014:569 JLINK_ReadReg(FPS17)  returns 0x00000000 (0000ms, 0955ms total)
TAFF4 014:569 JLINK_ReadReg(FPS18)  returns 0x00000000 (0000ms, 0955ms total)
TAFF4 014:569 JLINK_ReadReg(FPS19)  returns 0x00000000 (0000ms, 0955ms total)
TAFF4 014:569 JLINK_ReadReg(FPS20)  returns 0x00000000 (0000ms, 0955ms total)
TAFF4 014:569 JLINK_ReadReg(FPS21)  returns 0x00000000 (0001ms, 0956ms total)
TAFF4 014:570 JLINK_ReadReg(FPS22)  returns 0x00000000 (0000ms, 0956ms total)
TAFF4 014:570 JLINK_ReadReg(FPS23)  returns 0x00000000 (0000ms, 0956ms total)
TAFF4 014:570 JLINK_ReadReg(FPS24)  returns 0x00000000 (0000ms, 0956ms total)
TAFF4 014:570 JLINK_ReadReg(FPS25)  returns 0x00000000 (0000ms, 0956ms total)
TAFF4 014:570 JLINK_ReadReg(FPS26)  returns 0x00000000 (0000ms, 0956ms total)
TAFF4 014:570 JLINK_ReadReg(FPS27)  returns 0x00000000 (0000ms, 0956ms total)
TAFF4 014:570 JLINK_ReadReg(FPS28)  returns 0x00000000 (0000ms, 0956ms total)
TAFF4 014:570 JLINK_ReadReg(FPS29)  returns 0x00000000 (0000ms, 0956ms total)
TAFF4 014:570 JLINK_ReadReg(FPS30)  returns 0x00000000 (0000ms, 0956ms total)
TAFF4 014:570 JLINK_ReadReg(FPS31)  returns 0x00000000 (0000ms, 0956ms total)
TA900 014:570 JLINK_ReadMem (0x20000AF4, 0x0004 Bytes, ...) -- Read from C cache (4 bytes @ 0x20000AF4) - Data: 6D 2E 00 08  returns 0x00 (0000ms, 0956ms total)
TA900 014:570 JLINK_ReadMem (0x20000AF0, 0x0004 Bytes, ...) -- Read from C cache (4 bytes @ 0x20000AF0) - Data: 20 2F 00 08  returns 0x00 (0000ms, 0956ms total)
TA900 014:570 JLINK_ReadMem (0x00000000, 0x0004 Bytes, ...) -- CPU_ReadMem(4 bytes @ 0x00000004) -- CPU_ReadMem(64 bytes @ 0x08000000) -- Updating C cache (64 bytes @ 0x08000000) -- Read from C cache (4 bytes @ 0x08000000) - Data: F8 0A 00 20  returns 0x00 (0021ms, 0977ms total)
TA900 014:595 JLINK_ReadMemU32(0xE0001004, 0x0001 Items, ...) - Data: 22 11 00 00  returns 0x01 (0000ms, 0977ms total)
TA900 014:601 JLINK_ReadMem (0x08000ABC, 0x003C Bytes, ...) -- Read from C cache (60 bytes @ 0x08000ABC) - Data: 07 48 10 B5 01 68 41 F0 10 01 01 60 03 20 00 F0 ...  returns 0x00 (0000ms, 0977ms total)
TA900 014:601 JLINK_ReadMem (0x08000AF8, 0x003C Bytes, ...) -- CPU_ReadMem(64 bytes @ 0x08000B00) -- Updating C cache (64 bytes @ 0x08000B00) -- Read from C cache (60 bytes @ 0x08000AF8) - Data: 50 1E 00 F0 3D F8 00 20 10 BD 00 00 04 00 00 20 ...  returns 0x00 (0001ms, 0978ms total)
TA900 014:602 JLINK_ReadMem (0x08000B34, 0x003C Bytes, ...) -- CPU_ReadMem(64 bytes @ 0x08000B40) -- Updating C cache (64 bytes @ 0x08000B40) -- Read from C cache (60 bytes @ 0x08000B34) - Data: 0A 00 00 F0 1F F8 00 22 11 46 6F F0 09 00 00 F0 ...  returns 0x00 (0001ms, 0979ms total)
TA900 014:603 JLINK_ReadMem (0x08000B70, 0x003C Bytes, ...) -- CPU_ReadMem(64 bytes @ 0x08000B80) -- Updating C cache (64 bytes @ 0x08000B80) -- Read from C cache (60 bytes @ 0x08000B70) - Data: 03 B8 00 00 00 10 02 40 F0 B4 0E 4B 1B 68 0C 46 ...  returns 0x00 (0002ms, 0981ms total)
TA900 014:605 JLINK_ReadMem (0x08000BAC, 0x003C Bytes, ...) -- CPU_ReadMem(64 bytes @ 0x08000BC0) -- Updating C cache (64 bytes @ 0x08000BC0) -- Read from C cache (60 bytes @ 0x08000BAC) - Data: 31 43 F0 BC 01 F0 C0 BD 0C ED 00 E0 06 49 00 F0 ...  returns 0x00 (0001ms, 0982ms total)
TAFF4 015:134 JLINK_Step() -- Read from C cache (2 bytes @ 0x08000BB8) -- Read from C cache (4 bytes @ 0x08000BD4) -- Simulated  returns 0x00 (0001ms, 0983ms total)
TAFF4 015:135 JLINK_ReadReg(R15 (PC))  returns 0x08000BBA (0000ms, 0983ms total)
TAFF4 015:135 JLINK_ReadReg(XPSR)  returns 0x21000000 (0000ms, 0983ms total)
TAFF4 015:135 JLINK_ReadReg(R0)  returns 0x00000003 (0001ms, 0984ms total)
TAFF4 015:136 JLINK_ReadReg(R1)  returns 0xE000ED0C (0000ms, 0984ms total)
TAFF4 015:136 JLINK_ReadReg(R2)  returns 0x00000000 (0000ms, 0984ms total)
TAFF4 015:136 JLINK_ReadReg(R3)  returns 0x08002E5B (0000ms, 0984ms total)
TAFF4 015:136 JLINK_ReadReg(R4)  returns 0x08002F20 (0000ms, 0984ms total)
TAFF4 015:136 JLINK_ReadReg(R5)  returns 0x08002F20 (0000ms, 0984ms total)
TAFF4 015:136 JLINK_ReadReg(R6)  returns 0x00000000 (0000ms, 0984ms total)
TAFF4 015:136 JLINK_ReadReg(R7)  returns 0x00000000 (0000ms, 0984ms total)
TAFF4 015:136 JLINK_ReadReg(R8)  returns 0x00000000 (0000ms, 0984ms total)
TAFF4 015:136 JLINK_ReadReg(R9)  returns 0x00000000 (0000ms, 0984ms total)
TAFF4 015:136 JLINK_ReadReg(R10)  returns 0x00000000 (0000ms, 0984ms total)
TAFF4 015:136 JLINK_ReadReg(R11)  returns 0x00000000 (0000ms, 0984ms total)
TAFF4 015:136 JLINK_ReadReg(R12)  returns 0x00000000 (0000ms, 0984ms total)
TAFF4 015:136 JLINK_ReadReg(R13 (SP))  returns 0x20000AF0 (0000ms, 0984ms total)
TAFF4 015:136 JLINK_ReadReg(R14)  returns 0x08000ACF (0000ms, 0984ms total)
TAFF4 015:136 JLINK_ReadReg(R15 (PC))  returns 0x08000BBA (0000ms, 0984ms total)
TAFF4 015:136 JLINK_ReadReg(XPSR)  returns 0x21000000 (0000ms, 0984ms total)
TAFF4 015:136 JLINK_ReadReg(MSP)  returns 0x20000AF0 (0000ms, 0984ms total)
TAFF4 015:136 JLINK_ReadReg(PSP)  returns 0x00000000 (0000ms, 0984ms total)
TAFF4 015:136 JLINK_ReadReg(CFBP)  returns 0x00000000 (0000ms, 0984ms total)
TAFF4 015:136 JLINK_ReadReg(FPSCR)  returns 0x00000000 (0000ms, 0984ms total)
TAFF4 015:136 JLINK_ReadReg(FPS0)  returns 0x00000000 (0000ms, 0984ms total)
TAFF4 015:136 JLINK_ReadReg(FPS1)  returns 0x00000000 (0000ms, 0984ms total)
TAFF4 015:136 JLINK_ReadReg(FPS2)  returns 0x00000000 (0000ms, 0984ms total)
TAFF4 015:136 JLINK_ReadReg(FPS3)  returns 0x00000000 (0000ms, 0984ms total)
TAFF4 015:136 JLINK_ReadReg(FPS4)  returns 0x00000000 (0000ms, 0984ms total)
TAFF4 015:136 JLINK_ReadReg(FPS5)  returns 0x00000000 (0000ms, 0984ms total)
TAFF4 015:136 JLINK_ReadReg(FPS6)  returns 0x00000000 (0000ms, 0984ms total)
TAFF4 015:136 JLINK_ReadReg(FPS7)  returns 0x00000000 (0000ms, 0984ms total)
TAFF4 015:136 JLINK_ReadReg(FPS8)  returns 0x00000000 (0000ms, 0984ms total)
TAFF4 015:136 JLINK_ReadReg(FPS9)  returns 0x00000000 (0000ms, 0984ms total)
TAFF4 015:136 JLINK_ReadReg(FPS10)  returns 0x00000000 (0000ms, 0984ms total)
TAFF4 015:136 JLINK_ReadReg(FPS11)  returns 0x00000000 (0000ms, 0984ms total)
TAFF4 015:136 JLINK_ReadReg(FPS12)  returns 0x00000000 (0000ms, 0984ms total)
TAFF4 015:136 JLINK_ReadReg(FPS13)  returns 0x00000000 (0000ms, 0984ms total)
TAFF4 015:136 JLINK_ReadReg(FPS14)  returns 0x00000000 (0000ms, 0984ms total)
TAFF4 015:136 JLINK_ReadReg(FPS15)  returns 0x00000000 (0000ms, 0984ms total)
TAFF4 015:136 JLINK_ReadReg(FPS16)  returns 0x00000000 (0001ms, 0985ms total)
TAFF4 015:137 JLINK_ReadReg(FPS17)  returns 0x00000000 (0000ms, 0985ms total)
TAFF4 015:137 JLINK_ReadReg(FPS18)  returns 0x00000000 (0000ms, 0985ms total)
TAFF4 015:137 JLINK_ReadReg(FPS19)  returns 0x00000000 (0000ms, 0985ms total)
TAFF4 015:137 JLINK_ReadReg(FPS20)  returns 0x00000000 (0000ms, 0985ms total)
TAFF4 015:137 JLINK_ReadReg(FPS21)  returns 0x00000000 (0000ms, 0985ms total)
TAFF4 015:137 JLINK_ReadReg(FPS22)  returns 0x00000000 (0000ms, 0985ms total)
TAFF4 015:137 JLINK_ReadReg(FPS23)  returns 0x00000000 (0000ms, 0985ms total)
TAFF4 015:137 JLINK_ReadReg(FPS24)  returns 0x00000000 (0000ms, 0985ms total)
TAFF4 015:137 JLINK_ReadReg(FPS25)  returns 0x00000000 (0000ms, 0985ms total)
TAFF4 015:137 JLINK_ReadReg(FPS26)  returns 0x00000000 (0000ms, 0985ms total)
TAFF4 015:137 JLINK_ReadReg(FPS27)  returns 0x00000000 (0000ms, 0985ms total)
TAFF4 015:137 JLINK_ReadReg(FPS28)  returns 0x00000000 (0000ms, 0985ms total)
TAFF4 015:137 JLINK_ReadReg(FPS29)  returns 0x00000000 (0000ms, 0985ms total)
TAFF4 015:137 JLINK_ReadReg(FPS30)  returns 0x00000000 (0000ms, 0985ms total)
TAFF4 015:137 JLINK_ReadReg(FPS31)  returns 0x00000000 (0000ms, 0985ms total)
TA900 015:137 JLINK_ReadMem (0x20000AF4, 0x0004 Bytes, ...) -- Read from C cache (4 bytes @ 0x20000AF4) - Data: 6D 2E 00 08  returns 0x00 (0000ms, 0985ms total)
TA900 015:137 JLINK_ReadMem (0x20000AF0, 0x0004 Bytes, ...) -- Read from C cache (4 bytes @ 0x20000AF0) - Data: 20 2F 00 08  returns 0x00 (0000ms, 0985ms total)
TA900 015:137 JLINK_ReadMem (0x00000000, 0x0004 Bytes, ...) -- Read from C cache (4 bytes @ 0x08000000) - Data: F8 0A 00 20  returns 0x00 (0000ms, 0985ms total)
TA900 015:137 JLINK_ReadMemU32(0xE0001004, 0x0001 Items, ...) - Data: 22 11 00 00  returns 0x01 (0000ms, 0985ms total)
TA900 015:142 JLINK_ReadMem (0x08000BB4, 0x003C Bytes, ...) -- Read from C cache (60 bytes @ 0x08000BB4) - Data: 0C ED 00 E0 06 49 00 F0 07 02 08 68 4F F6 FF 03 ...  returns 0x00 (0000ms, 0985ms total)
TAFF4 015:605 JLINK_Step() -- Read from C cache (2 bytes @ 0x08000BBA) -- Read from C cache (2 bytes @ 0x08000BBC) -- Simulated  returns 0x00 (0000ms, 0985ms total)
TAFF4 015:605 JLINK_ReadReg(R15 (PC))  returns 0x08000BBE (0000ms, 0985ms total)
TAFF4 015:605 JLINK_ReadReg(XPSR)  returns 0x21000000 (0000ms, 0985ms total)
TAFF4 015:605 JLINK_Step() -- Read from C cache (2 bytes @ 0x08000BBE) -- Not simulated -- CPU_WriteMem(4 bytes @ 0xE0001004)  returns 0x00 (0005ms, 0990ms total)
TAFF4 015:610 JLINK_ReadReg(R15 (PC))  returns 0x08000BC0 (0000ms, 0990ms total)
TAFF4 015:610 JLINK_ReadReg(XPSR)  returns 0x21000000 (0000ms, 0990ms total)
TAFF4 015:610 JLINK_ReadReg(R0)  returns 0xFA050000 (0000ms, 0990ms total)
TAFF4 015:610 JLINK_ReadReg(R1)  returns 0xE000ED0C (0000ms, 0990ms total)
TAFF4 015:610 JLINK_ReadReg(R2)  returns 0x00000003 (0000ms, 0990ms total)
TAFF4 015:610 JLINK_ReadReg(R3)  returns 0x08002E5B (0000ms, 0990ms total)
TAFF4 015:610 JLINK_ReadReg(R4)  returns 0x08002F20 (0000ms, 0990ms total)
TAFF4 015:610 JLINK_ReadReg(R5)  returns 0x08002F20 (0000ms, 0990ms total)
TAFF4 015:610 JLINK_ReadReg(R6)  returns 0x00000000 (0000ms, 0990ms total)
TAFF4 015:610 JLINK_ReadReg(R7)  returns 0x00000000 (0000ms, 0990ms total)
TAFF4 015:610 JLINK_ReadReg(R8)  returns 0x00000000 (0000ms, 0990ms total)
TAFF4 015:610 JLINK_ReadReg(R9)  returns 0x00000000 (0000ms, 0990ms total)
TAFF4 015:610 JLINK_ReadReg(R10)  returns 0x00000000 (0000ms, 0990ms total)
TAFF4 015:610 JLINK_ReadReg(R11)  returns 0x00000000 (0000ms, 0990ms total)
TAFF4 015:610 JLINK_ReadReg(R12)  returns 0x00000000 (0000ms, 0990ms total)
TAFF4 015:610 JLINK_ReadReg(R13 (SP))  returns 0x20000AF0 (0000ms, 0990ms total)
TAFF4 015:610 JLINK_ReadReg(R14)  returns 0x08000ACF (0000ms, 0990ms total)
TAFF4 015:610 JLINK_ReadReg(R15 (PC))  returns 0x08000BC0 (0000ms, 0990ms total)
TAFF4 015:610 JLINK_ReadReg(XPSR)  returns 0x21000000 (0000ms, 0990ms total)
TAFF4 015:610 JLINK_ReadReg(MSP)  returns 0x20000AF0 (0000ms, 0990ms total)
TAFF4 015:610 JLINK_ReadReg(PSP)  returns 0x00000000 (0000ms, 0990ms total)
TAFF4 015:610 JLINK_ReadReg(CFBP)  returns 0x00000000 (0000ms, 0990ms total)
TAFF4 015:610 JLINK_ReadReg(FPSCR)  returns 0x00000000 (0004ms, 0994ms total)
TAFF4 015:614 JLINK_ReadReg(FPS0)  returns 0x00000000 (0000ms, 0994ms total)
TAFF4 015:614 JLINK_ReadReg(FPS1)  returns 0x00000000 (0000ms, 0994ms total)
TAFF4 015:614 JLINK_ReadReg(FPS2)  returns 0x00000000 (0000ms, 0994ms total)
TAFF4 015:614 JLINK_ReadReg(FPS3)  returns 0x00000000 (0000ms, 0994ms total)
TAFF4 015:614 JLINK_ReadReg(FPS4)  returns 0x00000000 (0000ms, 0994ms total)
TAFF4 015:614 JLINK_ReadReg(FPS5)  returns 0x00000000 (0000ms, 0994ms total)
TAFF4 015:614 JLINK_ReadReg(FPS6)  returns 0x00000000 (0000ms, 0994ms total)
TAFF4 015:614 JLINK_ReadReg(FPS7)  returns 0x00000000 (0000ms, 0994ms total)
TAFF4 015:614 JLINK_ReadReg(FPS8)  returns 0x00000000 (0000ms, 0994ms total)
TAFF4 015:614 JLINK_ReadReg(FPS9)  returns 0x00000000 (0000ms, 0994ms total)
TAFF4 015:614 JLINK_ReadReg(FPS10)  returns 0x00000000 (0000ms, 0994ms total)
TAFF4 015:614 JLINK_ReadReg(FPS11)  returns 0x00000000 (0000ms, 0994ms total)
TAFF4 015:614 JLINK_ReadReg(FPS12)  returns 0x00000000 (0000ms, 0994ms total)
TAFF4 015:614 JLINK_ReadReg(FPS13)  returns 0x00000000 (0000ms, 0994ms total)
TAFF4 015:614 JLINK_ReadReg(FPS14)  returns 0x00000000 (0000ms, 0994ms total)
TAFF4 015:614 JLINK_ReadReg(FPS15)  returns 0x00000000 (0000ms, 0994ms total)
TAFF4 015:614 JLINK_ReadReg(FPS16)  returns 0x00000000 (0000ms, 0994ms total)
